!Created with skrf (http://scikit-rf.org).
# Hz S RI R 50.0 
!freq ReS11 ImS11 ReS21 ImS21 ReS12 ImS12 ReS22 ImS22
6760000000.0 0.0 0.0 -0.0005183843734733757 -0.008492945087322911 0.0 0.0 0.0 0.0
6760003750.0 0.0 0.0 -0.0010349081735466536 -0.010807402983023937 0.0 0.0 0.0 0.0
6760007500.0 0.0 0.0 -0.00114372786394724 -0.01110156440828041 0.0 0.0 0.0 0.0
6760011250.0 0.0 0.0 -0.0013379431027112849 -0.011090210139838788 0.0 0.0 0.0 0.0
6760015000.0 0.0 0.0 -0.0013741527234978016 -0.011047989435759648 0.0 0.0 0.0 0.0
6760018750.0 0.0 0.0 -0.0013109886419149976 -0.01112093345444553 0.0 0.0 0.0 0.0
6760022500.0 0.0 0.0 -0.0014126522807767466 -0.011067024532852954 0.0 0.0 0.0 0.0
6760026250.0 0.0 0.0 -0.001570991847826087 -0.01111740313568637 0.0 0.0 0.0 0.0
6760030000.0 0.0 0.0 -0.001572089109062042 -0.01109102115901319 0.0 0.0 0.0 0.0
6760033750.0 0.0 0.0 -0.0014641758518563752 -0.011050851856375183 0.0 0.0 0.0 0.0
6760037500.0 0.0 0.0 -0.0015556778975329751 -0.011099035936736688 0.0 0.0 0.0 0.0
6760041250.0 0.0 0.0 -0.0015909333781143136 -0.011115590269296531 0.0 0.0 0.0 0.0
6760045000.0 0.0 0.0 -0.0016393559935271127 -0.011158383457498778 0.0 0.0 0.0 0.0
6760048750.0 0.0 0.0 -0.001724465299829018 -0.011035013128969224 0.0 0.0 0.0 0.0
6760052500.0 0.0 0.0 -0.0016903547874938937 -0.011065259373473375 0.0 0.0 0.0 0.0
6760056250.0 0.0 0.0 -0.0017190744076697605 -0.011157190782242305 0.0 0.0 0.0 0.0
6760060000.0 0.0 0.0 -0.0018090498290180752 -0.011099083643746947 0.0 0.0 0.0 0.0
6760063750.0 0.0 0.0 -0.0018222646708597949 -0.011033581918661457 0.0 0.0 0.0 0.0
6760067500.0 0.0 0.0 -0.0017647777234978017 -0.011100467147044456 0.0 0.0 0.0 0.0
6760071250.0 0.0 0.0 -0.0019964906723253543 -0.011207235436003908 0.0 0.0 0.0 0.0
6760075000.0 0.0 0.0 -0.001839057538470933 -0.011041692110405472 0.0 0.0 0.0 0.0
6760078750.0 0.0 0.0 -0.0018322354360039083 -0.011013926630434783 0.0 0.0 0.0 0.0
6760082500.0 0.0 0.0 -0.0019686297783341475 -0.011140588742672203 0.0 0.0 0.0 0.0
6760086250.0 0.0 0.0 -0.0019545562103077674 -0.011055288608329262 0.0 0.0 0.0 0.0
6760090000.0 0.0 0.0 -0.001977264747191011 -0.011000854909623839 0.0 0.0 0.0 0.0
6760093750.0 0.0 0.0 -0.001987187805324866 -0.011157286196262824 0.0 0.0 0.0 0.0
6760097500.0 0.0 0.0 -0.0020826018258426966 -0.011022561599291646 0.0 0.0 0.0 0.0
6760101250.0 0.0 0.0 -0.0020452472368099658 -0.010975045417073767 0.0 0.0 0.0 0.0
6760105000.0 0.0 0.0 -0.002000927424279433 -0.011024803828773815 0.0 0.0 0.0 0.0
6760108750.0 0.0 0.0 -0.002213891518075232 -0.011058389563996093 0.0 0.0 0.0 0.0
6760112500.0 0.0 0.0 -0.0021448594742305817 -0.010957680065339521 0.0 0.0 0.0 0.0
6760116250.0 0.0 0.0 -0.0020899009984123107 -0.011085916508915486 0.0 0.0 0.0 0.0
6760120000.0 0.0 0.0 -0.002245473558866634 -0.010992410768808011 0.0 0.0 0.0 0.0
6760123750.0 0.0 0.0 -0.0021994362939667805 -0.010925143884342941 0.0 0.0 0.0 0.0
6760127500.0 0.0 0.0 -0.002177729604298974 -0.011055622557401074 0.0 0.0 0.0 0.0
6760131250.0 0.0 0.0 -0.0023023403150952615 -0.01097661974841231 0.0 0.0 0.0 0.0
6760135000.0 0.0 0.0 -0.0022290623473375675 -0.01101139815889106 0.0 0.0 0.0 0.0
6760138750.0 0.0 0.0 -0.002419794974352711 -0.011047321537616023 0.0 0.0 0.0 0.0
6760142500.0 0.0 0.0 -0.0023806275189301417 -0.011018077140327308 0.0 0.0 0.0 0.0
6760146250.0 0.0 0.0 -0.002374330193575965 -0.011075373259648266 0.0 0.0 0.0 0.0
6760150000.0 0.0 0.0 -0.002445843001954079 -0.01106029784440645 0.0 0.0 0.0 0.0
6760153750.0 0.0 0.0 -0.0024115893685881778 -0.01096035165791402 0.0 0.0 0.0 0.0
6760157500.0 0.0 0.0 -0.0024412631289692233 -0.011035442492061552 0.0 0.0 0.0 0.0
6760161250.0 0.0 0.0 -0.0025690702094528575 -0.01090577483817782 0.0 0.0 0.0 0.0
6760165000.0 0.0 0.0 -0.0024365401349535905 -0.011003335674157302 0.0 0.0 0.0 0.0
6760168750.0 0.0 0.0 -0.0026270819339276994 -0.010998087903028822 0.0 0.0 0.0 0.0
6760172500.0 0.0 0.0 -0.002523796256717147 -0.010975904143258426 0.0 0.0 0.0 0.0
6760176250.0 0.0 0.0 -0.0025394441560820714 -0.011046081155349292 0.0 0.0 0.0 0.0
6760180000.0 0.0 0.0 -0.0026770788806790425 -0.010946898281021007 0.0 0.0 0.0 0.0
6760183750.0 0.0 0.0 -0.002518214536516854 -0.01097933904799707 0.0 0.0 0.0 0.0
6760187500.0 0.0 0.0 -0.0027214941072300925 -0.010913551080850023 0.0 0.0 0.0 0.0
6760191250.0 0.0 0.0 -0.002620355245481192 -0.010924809935271129 0.0 0.0 0.0 0.0
6760195000.0 0.0 0.0 -0.002751931179775281 -0.010930439362481682 0.0 0.0 0.0 0.0
6760198750.0 0.0 0.0 -0.0026854276074743527 -0.010870137701514411 0.0 0.0 0.0 0.0
6760202500.0 0.0 0.0 -0.0028277853260869567 -0.010995177775403028 0.0 0.0 0.0 0.0
6760206250.0 0.0 0.0 -0.0028038841139472396 -0.010917176813629702 0.0 0.0 0.0 0.0
6760210000.0 0.0 0.0 -0.002781270991084514 -0.010975951850268686 0.0 0.0 0.0 0.0
6760213750.0 0.0 0.0 -0.002868145456765999 -0.010908541844772838 0.0 0.0 0.0 0.0
6760217500.0 0.0 0.0 -0.0027974913745725453 -0.010936211910723009 0.0 0.0 0.0 0.0
6760221250.0 0.0 0.0 -0.003000627824255007 -0.010827583048363459 0.0 0.0 0.0 0.0
6760225000.0 0.0 0.0 -0.0028599875580117245 -0.010959874587811431 0.0 0.0 0.0 0.0
6760228750.0 0.0 0.0 -0.0030252446415486075 -0.01091989611321446 0.0 0.0 0.0 0.0
6760232500.0 0.0 0.0 -0.002913323995481192 -0.010820474703834881 0.0 0.0 0.0 0.0
6760236250.0 0.0 0.0 -0.003070709422325354 -0.010855443942354664 0.0 0.0 0.0 0.0
6760240000.0 0.0 0.0 -0.0029349829781387393 -0.010809311263434294 0.0 0.0 0.0 0.0
6760243750.0 0.0 0.0 -0.0031003831827063994 -0.010890174645823156 0.0 0.0 0.0 0.0
6760247500.0 0.0 0.0 -0.0030141766151685393 -0.010844852986077185 0.0 0.0 0.0 0.0
6760251250.0 0.0 0.0 -0.0031350184721543723 -0.010918798851978505 0.0 0.0 0.0 0.0
6760255000.0 0.0 0.0 -0.003028536425256473 -0.01083497763495359 0.0 0.0 0.0 0.0
6760258750.0 0.0 0.0 -0.00323806561431363 -0.010750249984733756 0.0 0.0 0.0 0.0
6760262500.0 0.0 0.0 -0.003161400448827553 -0.010887884709330727 0.0 0.0 0.0 0.0
6760266250.0 0.0 0.0 -0.0033116298241328774 -0.010818614130434782 0.0 0.0 0.0 0.0
6760270000.0 0.0 0.0 -0.0032036688599169517 -0.010889411333659013 0.0 0.0 0.0 0.0
6760273750.0 0.0 0.0 -0.003317640907425501 -0.010765802470078164 0.0 0.0 0.0 0.0
6760277500.0 0.0 0.0 -0.003281478993649243 -0.010869946873473375 0.0 0.0 0.0 0.0
6760281250.0 0.0 0.0 -0.0033633919302638003 -0.010762606100390816 0.0 0.0 0.0 0.0
6760285000.0 0.0 0.0 -0.003254142876770884 -0.010825531646922326 0.0 0.0 0.0 0.0
6760288750.0 0.0 0.0 -0.0033493183622374206 -0.010698297050561799 0.0 0.0 0.0 0.0
6760292500.0 0.0 0.0 -0.003406232825476307 -0.010880394708720077 0.0 0.0 0.0 0.0
6760296250.0 0.0 0.0 -0.003349604604298974 -0.01077252915852467 0.0 0.0 0.0 0.0
6760300000.0 0.0 0.0 -0.0034278918081338543 -0.010739849856497313 0.0 0.0 0.0 0.0
6760303750.0 0.0 0.0 -0.003363296516243283 -0.010777538394601858 0.0 0.0 0.0 0.0
6760307500.0 0.0 0.0 -0.003488384297142159 -0.010746242595872008 0.0 0.0 0.0 0.0
6760311250.0 0.0 0.0 -0.003397502442598925 -0.010806925912921348 0.0 0.0 0.0 0.0
6760315000.0 0.0 0.0 -0.0035209204781387394 -0.010654072652051783 0.0 0.0 0.0 0.0
6760318750.0 0.0 0.0 -0.00354200697667318 -0.010791325720566684 0.0 0.0 0.0 0.0
6760322500.0 0.0 0.0 -0.003479367672203224 -0.010759886800806058 0.0 0.0 0.0 0.0
6760326250.0 0.0 0.0 -0.003619626282364436 -0.010716139472398632 0.0 0.0 0.0 0.0
6760330000.0 0.0 0.0 -0.003571776151074744 -0.010759123488641916 0.0 0.0 0.0 0.0
6760333750.0 0.0 0.0 -0.003589666279921837 -0.01065989290730337 0.0 0.0 0.0 0.0
6760337500.0 0.0 0.0 -0.003675157242305813 -0.010772624572545188 0.0 0.0 0.0 0.0
6760341250.0 0.0 0.0 -0.0035696770426233513 -0.010702065904372251 0.0 0.0 0.0 0.0
6760345000.0 0.0 0.0 -0.0037784429195163653 -0.010701064057156815 0.0 0.0 0.0 0.0
6760348750.0 0.0 0.0 -0.003637134755129458 -0.01073913425134343 0.0 0.0 0.0 0.0
6760352500.0 0.0 0.0 -0.003749293936248168 -0.010608083094162188 0.0 0.0 0.0 0.0
6760356250.0 0.0 0.0 -0.003826293050806058 -0.010664043417195896 0.0 0.0 0.0 0.0
6760360000.0 0.0 0.0 -0.0037342662280166095 -0.010673632526257939 0.0 0.0 0.0 0.0
6760363750.0 0.0 0.0 -0.0038095001831949197 -0.01058637640449438 0.0 0.0 0.0 0.0
6760367500.0 0.0 0.0 -0.003890936049706888 -0.01070125488519785 0.0 0.0 0.0 0.0
6760371250.0 0.0 0.0 -0.0037361745084269664 -0.010586662646555936 0.0 0.0 0.0 0.0
6760375000.0 0.0 0.0 -0.003910257388861749 -0.01048008518563752 0.0 0.0 0.0 0.0
6760378750.0 0.0 0.0 -0.003943222932950659 -0.010626736535173424 0.0 0.0 0.0 0.0
6760382500.0 0.0 0.0 -0.003794567888983879 -0.010588380098925257 0.0 0.0 0.0 0.0
6760386250.0 0.0 0.0 -0.003939883442232535 -0.010475982382755251 0.0 0.0 0.0 0.0
6760390000.0 0.0 0.0 -0.003998658478871519 -0.010653023097826087 0.0 0.0 0.0 0.0
6760393750.0 0.0 0.0 -0.0039098280257694185 -0.010573304683683438 0.0 0.0 0.0 0.0
6760397500.0 0.0 0.0 -0.003978287585490963 -0.010577550607596482 0.0 0.0 0.0 0.0
6760401250.0 0.0 0.0 -0.004095265174645823 -0.010622204369198827 0.0 0.0 0.0 0.0
6760405000.0 0.0 0.0 -0.004017884404005862 -0.010566530288226673 0.0 0.0 0.0 0.0
6760408750.0 0.0 0.0 -0.004047081094284318 -0.010511571812408404 0.0 0.0 0.0 0.0
6760412500.0 0.0 0.0 -0.004155089765510503 -0.010542963025158768 0.0 0.0 0.0 0.0
6760416250.0 0.0 0.0 -0.0041460254335613095 -0.010574258823888617 0.0 0.0 0.0 0.0
6760420000.0 0.0 0.0 -0.004152513586956522 -0.010483186141304349 0.0 0.0 0.0 0.0
6760423750.0 0.0 0.0 -0.004212242763800684 -0.01044392327186126 0.0 0.0 0.0 0.0
6760427500.0 0.0 0.0 -0.004288478566194431 -0.010548401624328286 0.0 0.0 0.0 0.0
6760431250.0 0.0 0.0 -0.004153944797264289 -0.010554508121641427 0.0 0.0 0.0 0.0
6760435000.0 0.0 0.0 -0.004224646586468002 -0.010457519769785052 0.0 0.0 0.0 0.0
6760438750.0 0.0 0.0 -0.004355029845505618 -0.010468921745236932 0.0 0.0 0.0 0.0
6760442500.0 0.0 0.0 -0.004367863031265266 -0.010444638877015144 0.0 0.0 0.0 0.0
6760446250.0 0.0 0.0 -0.004262048882510992 -0.010425794607962873 0.0 0.0 0.0 0.0
6760450000.0 0.0 0.0 -0.004312809141426477 -0.010338538486199315 0.0 0.0 0.0 0.0
6760453750.0 0.0 0.0 -0.004434080361504641 -0.010359672691744015 0.0 0.0 0.0 0.0
6760457500.0 0.0 0.0 -0.004376211758060577 -0.010441347093307279 0.0 0.0 0.0 0.0
6760461250.0 0.0 0.0 -0.004334563538104543 -0.010453464673913044 0.0 0.0 0.0 0.0
6760465000.0 0.0 0.0 -0.004374685133732291 -0.01040828613519785 0.0 0.0 0.0 0.0
6760468750.0 0.0 0.0 -0.0045559240657059115 -0.010449027921958964 0.0 0.0 0.0 0.0
6760472500.0 0.0 0.0 -0.004540419287371764 -0.010386770273571079 0.0 0.0 0.0 0.0
6760476250.0 0.0 0.0 -0.0044818827857840745 -0.010435383717024915 0.0 0.0 0.0 0.0
6760480000.0 0.0 0.0 -0.004445148387884709 -0.010337298103932585 0.0 0.0 0.0 0.0
6760483750.0 0.0 0.0 -0.004554969925500733 -0.010292882877381533 0.0 0.0 0.0 0.0
6760487500.0 0.0 0.0 -0.004550771708597948 -0.010291928737176355 0.0 0.0 0.0 0.0
6760491250.0 0.0 0.0 -0.004679198980214948 -0.010383907852955544 0.0 0.0 0.0 0.0
6760495000.0 0.0 0.0 -0.004653866557767465 -0.010324226383121641 0.0 0.0 0.0 0.0
6760498750.0 0.0 0.0 -0.0046294405685149 -0.010256053065461651 0.0 0.0 0.0 0.0
6760502500.0 0.0 0.0 -0.0047322968826331215 -0.010269411028334148 0.0 0.0 0.0 0.0
6760506250.0 0.0 0.0 -0.004751522807767465 -0.010211113061797754 0.0 0.0 0.0 0.0
6760510000.0 0.0 0.0 -0.004790308607107963 -0.010353852436492427 0.0 0.0 0.0 0.0
6760513750.0 0.0 0.0 -0.004772466185271128 -0.01021869847642892 0.0 0.0 0.0 0.0
6760517500.0 0.0 0.0 -0.0047001900647288715 -0.01028649013800684 0.0 0.0 0.0 0.0
6760521250.0 0.0 0.0 -0.004784249816805081 -0.0101739015937958 0.0 0.0 0.0 0.0
6760525000.0 0.0 0.0 -0.004859436064973131 -0.010201857901807523 0.0 0.0 0.0 0.0
6760528750.0 0.0 0.0 -0.004853520395701026 -0.01020596070468979 0.0 0.0 0.0 0.0
6760532500.0 0.0 0.0 -0.004918211101612115 -0.010198232169027845 0.0 0.0 0.0 0.0
6760536250.0 0.0 0.0 -0.004895741099780166 -0.010194797264289204 0.0 0.0 0.0 0.0
6760540000.0 0.0 0.0 -0.004914871610893991 -0.01020901395334636 0.0 0.0 0.0 0.0
6760543750.0 0.0 0.0 -0.004871935301660967 -0.010150286623717636 0.0 0.0 0.0 0.0
6760547500.0 0.0 0.0 -0.004916159700170982 -0.010174283249877871 0.0 0.0 0.0 0.0
6760551250.0 0.0 0.0 -0.004946835307767464 -0.01014966643258427 0.0 0.0 0.0 0.0
6760555000.0 0.0 0.0 -0.005032230856130923 -0.010074957254518808 0.0 0.0 0.0 0.0
6760558750.0 0.0 0.0 -0.005097780288226673 -0.010209777265510504 0.0 0.0 0.0 0.0
6760562500.0 0.0 0.0 -0.005135468826331216 -0.010105394327063996 0.0 0.0 0.0 0.0
6760566250.0 0.0 0.0 -0.005060902769296532 -0.010119658723131413 0.0 0.0 0.0 0.0
6760570000.0 0.0 0.0 -0.005015056332437713 -0.010098047447484123 0.0 0.0 0.0 0.0
6760573750.0 0.0 0.0 -0.005095633472765022 -0.010053107443820226 0.0 0.0 0.0 0.0
6760577500.0 0.0 0.0 -0.00510975474780166 -0.010051246870420126 0.0 0.0 0.0 0.0
6760581250.0 0.0 0.0 -0.0052151872404738635 -0.010068803050195408 0.0 0.0 0.0 0.0
6760585000.0 0.0 0.0 -0.005217954247068881 -0.01005506343124084 0.0 0.0 0.0 0.0
6760588750.0 0.0 0.0 -0.005234460872618466 -0.010034167760747434 0.0 0.0 0.0 0.0
6760592500.0 0.0 0.0 -0.005206313736565706 -0.010022622664264777 0.0 0.0 0.0 0.0
6760596250.0 0.0 0.0 -0.005283789921226184 -0.009993330559965805 0.0 0.0 0.0 0.0
6760600000.0 0.0 0.0 -0.005277874251954079 -0.010013987695407916 0.0 0.0 0.0 0.0
6760603750.0 0.0 0.0 -0.005307404891304348 -0.010054681775158768 0.0 0.0 0.0 0.0
6760607500.0 0.0 0.0 -0.005370998335979482 -0.01005329827186126 0.0 0.0 0.0 0.0
6760611250.0 0.0 0.0 -0.005369233176599902 -0.009992853489863215 0.0 0.0 0.0 0.0
6760615000.0 0.0 0.0 -0.005384881075964827 -0.010040274258060576 0.0 0.0 0.0 0.0
6760618750.0 0.0 0.0 -0.005361027570835369 -0.01000759495603322 0.0 0.0 0.0 0.0
6760622500.0 0.0 0.0 -0.005372334132266732 -0.010016468459941377 0.0 0.0 0.0 0.0
6760626250.0 0.0 0.0 -0.005389460948949682 -0.009976251450293112 0.0 0.0 0.0 0.0
6760630000.0 0.0 0.0 -0.005379967253908158 -0.009936654631778213 0.0 0.0 0.0 0.0
6760633750.0 0.0 0.0 -0.005420327384587201 -0.009907028578407424 0.0 0.0 0.0 0.0
6760637500.0 0.0 0.0 -0.005472518853810454 -0.009881743862970199 0.0 0.0 0.0 0.0
6760641250.0 0.0 0.0 -0.005484350192354666 -0.009866811568759161 0.0 0.0 0.0 0.0
6760645000.0 0.0 0.0 -0.005501858665119687 -0.009877784181118711 0.0 0.0 0.0 0.0
6760648750.0 0.0 0.0 -0.005495179683683439 -0.00988923386358085 0.0 0.0 0.0 0.0
6760652500.0 0.0 0.0 -0.005593837780898877 -0.00983465704384465 0.0 0.0 0.0 0.0
6760656250.0 0.0 0.0 -0.005544270197239863 -0.009863615199071812 0.0 0.0 0.0 0.0
6760660000.0 0.0 0.0 -0.005608626954079141 -0.009821728444064485 0.0 0.0 0.0 0.0
6760663750.0 0.0 0.0 -0.005627518930141671 -0.009775834300195407 0.0 0.0 0.0 0.0
6760667500.0 0.0 0.0 -0.00569044447667318 -0.009801452964704447 0.0 0.0 0.0 0.0
6760671250.0 0.0 0.0 -0.005655379824132878 -0.009834036852711284 0.0 0.0 0.0 0.0
6760675000.0 0.0 0.0 -0.00568037829750855 -0.009805842009648267 0.0 0.0 0.0 0.0
6760678750.0 0.0 0.0 -0.0057437332071323885 -0.009773401242672203 0.0 0.0 0.0 0.0
6760682500.0 0.0 0.0 -0.005697600528212018 -0.009795632709452858 0.0 0.0 0.0 0.0
6760686250.0 0.0 0.0 -0.005775744611016121 -0.009799783219345385 0.0 0.0 0.0 0.0
6760690000.0 0.0 0.0 -0.005794922829140205 -0.009742487100024426 0.0 0.0 0.0 0.0
6760693750.0 0.0 0.0 -0.005799836651196873 -0.009702413211406937 0.0 0.0 0.0 0.0
6760697500.0 0.0 0.0 -0.005829748946629213 -0.009629516899731313 0.0 0.0 0.0 0.0
6760701250.0 0.0 0.0 -0.005909801309843673 -0.00966577422752809 0.0 0.0 0.0 0.0
6760705000.0 0.0 0.0 -0.005890813919760625 -0.009701363657181241 0.0 0.0 0.0 0.0
6760708750.0 0.0 0.0 -0.005902979207376649 -0.009665631106497312 0.0 0.0 0.0 0.0
6760712500.0 0.0 0.0 -0.005952689912066439 -0.009675792699682462 0.0 0.0 0.0 0.0
6760716250.0 0.0 0.0 -0.005931364878480704 -0.00960156059171959 0.0 0.0 0.0 0.0
6760720000.0 0.0 0.0 -0.005955695453712751 -0.009569167531753785 0.0 0.0 0.0 0.0
6760723750.0 0.0 0.0 -0.0059951968582071325 -0.009457771662799219 0.0 0.0 0.0 0.0
6760727500.0 0.0 0.0 -0.006011417241695164 -0.009538444217147045 0.0 0.0 0.0 0.0
6760731250.0 0.0 0.0 -0.0060023052027357105 -0.009608859764289202 0.0 0.0 0.0 0.0
6760735000.0 0.0 0.0 -0.0060212925928187595 -0.009594356833170493 0.0 0.0 0.0 0.0
6760738750.0 0.0 0.0 -0.006060746290302882 -0.009582954857718613 0.0 0.0 0.0 0.0
6760742500.0 0.0 0.0 -0.006141991328773816 -0.009577516258549097 0.0 0.0 0.0 0.0
6760746250.0 0.0 0.0 -0.006166894388128969 -0.009549035173424524 0.0 0.0 0.0 0.0
6760750000.0 0.0 0.0 -0.006145235405471421 -0.009511060393258426 0.0 0.0 0.0 0.0
6760753750.0 0.0 0.0 -0.006109932217879824 -0.009473133320102588 0.0 0.0 0.0 0.0
6760757500.0 0.0 0.0 -0.006228102482291158 -0.00938864420493405 0.0 0.0 0.0 0.0
6760761250.0 0.0 0.0 -0.006132211391670738 -0.009381488153395214 0.0 0.0 0.0 0.0
6760765000.0 0.0 0.0 -0.006200670951392282 -0.009428527265510503 0.0 0.0 0.0 0.0
6760768750.0 0.0 0.0 -0.0061645090376160235 -0.009439929240962385 0.0 0.0 0.0 0.0
6760772500.0 0.0 0.0 -0.006290407837689301 -0.00942118038593063 0.0 0.0 0.0 0.0
6760776250.0 0.0 0.0 -0.006223856558378114 -0.009395561721421593 0.0 0.0 0.0 0.0
6760780000.0 0.0 0.0 -0.006325806439301416 -0.00939479840925745 0.0 0.0 0.0 0.0
6760783750.0 0.0 0.0 -0.0062989473925256475 -0.009361880572178799 0.0 0.0 0.0 0.0
6760787500.0 0.0 0.0 -0.006369792302760137 -0.009376908280410356 0.0 0.0 0.0 0.0
6760791250.0 0.0 0.0 -0.006438967467635564 -0.009292848528334148 0.0 0.0 0.0 0.0
6760795000.0 0.0 0.0 -0.0063947430691255495 -0.009324955346238398 0.0 0.0 0.0 0.0
6760798750.0 0.0 0.0 -0.00637451529677577 -0.00939308095688813 0.0 0.0 0.0 0.0
6760802500.0 0.0 0.0 -0.006371509755129458 -0.009302055981314119 0.0 0.0 0.0 0.0
6760806250.0 0.0 0.0 -0.006483668936248168 -0.00921971368160723 0.0 0.0 0.0 0.0
6760810000.0 0.0 0.0 -0.006464872374206155 -0.00928044470566683 0.0 0.0 0.0 0.0
6760813750.0 0.0 0.0 -0.006502370084269664 -0.00924876725085491 0.0 0.0 0.0 0.0
6760817500.0 0.0 0.0 -0.006457716322667318 -0.009341605092818759 0.0 0.0 0.0 0.0
6760821250.0 0.0 0.0 -0.00650690225024426 -0.009220524700781631 0.0 0.0 0.0 0.0
6760825000.0 0.0 0.0 -0.006576363657181241 -0.00924919661394724 0.0 0.0 0.0 0.0
6760828750.0 0.0 0.0 -0.0065717360771861254 -0.009221955911089399 0.0 0.0 0.0 0.0
6760832500.0 0.0 0.0 -0.006577460918417196 -0.009192282150708353 0.0 0.0 0.0 0.0
6760836250.0 0.0 0.0 -0.0065988813660234485 -0.009221669669027845 0.0 0.0 0.0 0.0
6760840000.0 0.0 0.0 -0.006605083277357108 -0.009200630877503663 0.0 0.0 0.0 0.0
6760843750.0 0.0 0.0 -0.00663141754702003 -0.00913174195468979 0.0 0.0 0.0 0.0
6760847500.0 0.0 0.0 -0.006705888190034197 -0.009160652402906692 0.0 0.0 0.0 0.0
6760851250.0 0.0 0.0 -0.006644870923913043 -0.009144622847459698 0.0 0.0 0.0 0.0
6760855000.0 0.0 0.0 -0.006671205193575965 -0.00913918424829018 0.0 0.0 0.0 0.0
6760858750.0 0.0 0.0 -0.0066832750671714704 -0.009117525265632634 0.0 0.0 0.0 0.0
6760862500.0 0.0 0.0 -0.006755360359672692 -0.009064665898265755 0.0 0.0 0.0 0.0
6760866250.0 0.0 0.0 -0.006744483161333659 -0.009064665898265755 0.0 0.0 0.0 0.0
6760870000.0 0.0 0.0 -0.006778689087689301 -0.009059895197239863 0.0 0.0 0.0 0.0
6760873750.0 0.0 0.0 -0.00685177622740596 -0.009012235893991208 0.0 0.0 0.0 0.0
6760877500.0 0.0 0.0 -0.00678360290974597 -0.008989813599169517 0.0 0.0 0.0 0.0
6760881250.0 0.0 0.0 -0.006818667562286273 -0.00893995977344895 0.0 0.0 0.0 0.0
6760885000.0 0.0 0.0 -0.006816806988886175 -0.009026738825109917 0.0 0.0 0.0 0.0
6760888750.0 0.0 0.0 -0.006895905211895457 -0.008950216780654616 0.0 0.0 0.0 0.0
6760892500.0 0.0 0.0 -0.006864943362237421 -0.008913911745847582 0.0 0.0 0.0 0.0
6760896250.0 0.0 0.0 -0.00687944629335613 -0.00892975047325354 0.0 0.0 0.0 0.0
6760900000.0 0.0 0.0 -0.006945806744626283 -0.008902748305446996 0.0 0.0 0.0 0.0
6760903750.0 0.0 0.0 -0.0070202296806301905 -0.008857617473742061 0.0 0.0 0.0 0.0
